"Freq [GHz]","ReflectanceTE []","ReflectanceTM []"
30,0.974683157214823,0.971150207327045
30.01,0.974687499863108,0.97115745460379
30.02,0.974691701797635,0.97116447032299
30.03,0.974695764994543,0.971171255798569
30.04,0.974699691431765,0.971177812363317
30.05,0.974703483088869,0.971184141368726
30.06,0.974707141946947,0.971190244184848
30.07,0.974710669988488,0.97119612220016
30.08,0.974714069197254,0.971201776821417
30.09,0.974717341558129,0.971207209473459
30.1,0.974720489056999,0.971212421599079
30.11,0.974723513680635,0.971217414658863
30.12,0.974726417416568,0.971222190131027
30.13,0.974729202252928,0.971226749511219
30.14,0.974731870178387,0.971231094312418
30.15,0.974734423181939,0.971235226064669
30.16,0.974736863252861,0.971239146314983
30.17,0.974739192380525,0.971242856627106
30.18,0.974741412554312,0.971246358581383
30.19,0.974743525763473,0.971249653774541
30.2,0.974745533997004,0.971252743819513
30.21,0.974747439243517,0.97125563034524
30.22,0.974749243491129,0.971258314996495
30.23,0.974750948727355,0.971260799433694
30.24,0.974752556938917,0.971263085332649
30.25,0.97475407011173,0.971265174384451
30.26,0.974755490230679,0.971267068295186
30.27,0.974756819279548,0.971268768785777
30.28,0.974758059240903,0.971270277591771
30.29,0.974759212095968,0.971271596463134
30.3,0.974760279824488,0.971272727164019
30.31,0.974761264404616,0.971273671472563
30.32,0.974762167812829,0.9712744311807
30.33,0.974762992023751,0.971275008093887
30.34,0.974763739010099,0.971275404030945
30.35,0.974764410742528,0.971275620823801
30.36,0.974765009189501,0.971275660317254
30.37,0.974765536317233,0.97127552436879
30.38,0.974765994089525,0.971275214848343
30.39,0.974766384467663,0.971274733638034
30.4,0.974766709410314,0.971274082631978
30.41,0.974766970873407,0.971273263736034
30.42,0.97476717081002,0.971272278867581
30.43,0.974767311170276,0.97127112995528
30.44,0.974767393901205,0.971269818938811
30.45,0.97476742094669,0.971268347768699
30.46,0.974767394247304,0.971266718406006
30.47,0.974767315740219,0.97126493282213
30.48,0.974767187359112,0.971262992998554
30.49,0.974767011034028,0.971260900926583
30.5,0.97476678869131,0.971258658607149
30.51,0.974766522253457,0.971256268050498
30.52,0.974766213639048,0.97125373127601
30.53,0.974765864762619,0.971251050311901
30.54,0.974765477534571,0.971248227195009
30.55,0.974765053861046,0.97124526397051
30.56,0.974764595643847,0.971242162691692
30.57,0.97476410478034,0.971238925419724
30.58,0.974763583163334,0.971235554223354
30.59,0.974763032680972,0.97123205117868
30.6,0.97476245521667,0.971228418368914
30.61,0.974761852648981,0.971224657884101
30.62,0.974761226851514,0.971220771820879
30.63,0.974760579692834,0.971216762282228
30.64,0.974759913036373,0.971212631377209
30.65,0.97475922874031,0.97120838122069
30.66,0.974758528657497,0.971204013933136
30.67,0.974757814635363,0.971199531640301
30.68,0.974757088515817,0.971194936473022
30.69,0.974756352135153,0.971190230566919
30.7,0.974755607323956,0.971185416062169
30.71,0.974754855906998,0.97118049510321
30.72,0.974754099703206,0.971175469838564
30.73,0.974753340525468,0.971170342420466
30.74,0.974752580180667,0.971165115004735
30.75,0.974751820469467,0.971159789750394
30.76,0.974751063186362,0.971154368819543
30.77,0.97475031011943,0.97114885437696
30.78,0.974749563050399,0.971143248589971
30.79,0.97474882375447,0.971137553628141
30.8,0.974748094000254,0.97113177166301
30.81,0.974747375549701,0.971125904867866
30.82,0.97474667015799,0.971119955417464
30.83,0.974745979573489,0.97111392548781
30.84,0.974745305537629,0.971107817255875
30.85,0.974744649784845,0.971101632899357
30.86,0.974744014042515,0.971095374596446
30.87,0.974743400030822,0.971089044525529
30.88,0.974742809462747,0.971082644865004
30.89,0.974742244043943,0.97107617779298
30.9,0.974741705472691,0.971069645487064
30.91,0.974741195439775,0.971063050124082
30.92,0.974740715628464,0.97105639387986
30.93,0.974740267714419,0.971049678928992
30.94,0.974739853365582,0.971042907444547
30.95,0.974739474242156,0.971036081597867
30.96,0.974739131996512,0.971029203558331
30.97,0.974738828273115,0.971022275493098
30.98,0.974738564708454,0.971015299566865
30.99,0.974738342930971,0.97100827794164
31,0.974738164561007,0.971001212776515
31.01,0.974738031210723,0.970994106227425
31.02,0.974737944484007,0.970986960446884
31.03,0.974737905976463,0.970979777583812
31.04,0.974737917275309,0.970972559783271
31.05,0.974737979959323,0.970965309186248
31.06,0.974738095598765,0.970958027929408
31.07,0.974738265755341,0.970950718144902
31.08,0.974738491982114,0.970943381960121
31.09,0.974738775823433,0.970936021497452
31.1,0.97473911881494,0.970928638874145
31.11,0.97473952248343,0.970921236201991
31.12,0.974739988346838,0.970913815587175
31.13,0.974740517914151,0.970906379130019
31.14,0.974741112685385,0.970898928924808
31.15,0.97474177415151,0.970891467059555
31.16,0.974742503794366,0.970883995615779
31.17,0.974743303086698,0.970876516668368
31.18,0.974744173491974,0.970869032285264
31.19,0.974745116464437,0.970861544527357
31.2,0.974746133448998,0.970854055448234
31.21,0.974747225881208,0.970846567093997
31.22,0.974748395187211,0.970839081503079
31.23,0.974749642783637,0.970831600705991
31.24,0.974750970077656,0.970824126725226
31.25,0.974752378466816,0.970816661574971
31.26,0.974753869339085,0.970809207260981
31.27,0.974755444072765,0.970801765780393
31.28,0.974757104036416,0.970794339121476
31.29,0.974758850588895,0.970786929263551
31.3,0.974760685079224,0.970779538176735
31.31,0.974762608846577,0.970772167821767
31.32,0.974764623220268,0.970764820149897
31.33,0.974766729519661,0.970757497102639
31.34,0.974768929054163,0.970750200611643
31.35,0.974771223123146,0.970742932598507
31.36,0.974773613015971,0.970735694974651
31.37,0.974776100011862,0.97072848964108
31.38,0.974778685379945,0.970721318488306
31.39,0.974781370379166,0.970714183396133
31.4,0.97478415625826,0.970707086233517
31.41,0.974787044255735,0.970700028858424
31.42,0.97479003559982,0.970693013117667
31.43,0.97479313150841,0.970686040846747
31.44,0.974796333189084,0.970679113869736
31.45,0.974799641839033,0.97067223399912
31.46,0.974803058645025,0.970665403035638
31.47,0.974806584783399,0.970658622768173
31.48,0.974810221419999,0.970651894973577
31.49,0.97481396971019,0.970645221416601
31.5,0.974817830798792,0.970638603849703
31.51,0.974821805820053,0.970632044012936
31.52,0.974825895897641,0.970625543633838
31.53,0.974830102144597,0.970619104427282
31.54,0.974834425663313,0.970612728095375
31.55,0.974838867545534,0.97060641632735
31.56,0.974843428872272,0.970600170799402
31.57,0.974848110713835,0.970593993174612
31.58,0.974852914129801,0.970587885102844
31.59,0.974857840168943,0.970581848220597
31.6,0.974862889869274,0.970575884150927
31.61,0.974868064257984,0.970569994503343
31.62,0.974873364351433,0.970564180873704
31.63,0.974878791155108,0.970558444844078
31.64,0.974884345663658,0.970552787982733
31.65,0.974890028860799,0.970547211843947
31.66,0.974895841719376,0.970541717968
31.67,0.974901785201266,0.970536307881004
31.68,0.974907860257427,0.970530983094885
31.69,0.974914067827859,0.970525745107277
31.7,0.974920408841564,0.970520595401408
31.71,0.974926884216573,0.970515535446075
31.72,0.974933494859887,0.970510566695509
31.73,0.974940241667516,0.970505690589366
31.74,0.974947125524423,0.970500908552599
31.75,0.974954147304524,0.970496221995406
31.76,0.974961307870688,0.97049163231318
31.77,0.974968608074699,0.970487140886409
31.78,0.9749760487573,0.970482749080665
31.79,0.974983630748116,0.970478458246493
31.8,0.974991354865678,0.970474269719371
31.81,0.974999221917437,0.970470184819676
31.82,0.975007232699722,0.970466204852604
31.83,0.975015387997723,0.970462331108116
31.84,0.975023688585538,0.970458564860922
31.85,0.97503213522612,0.970454907370411
31.86,0.975040728671269,0.970451359880587
31.87,0.9750494696617,0.9704479236201
31.88,0.975058358926926,0.970444599802122
31.89,0.975067397185344,0.970441389624362
31.9,0.9750765851442,0.970438294269015
31.91,0.975085923499575,0.970435314902727
31.92,0.975095412936411,0.970432452676573
31.93,0.97510505412849,0.970429708726028
31.94,0.975114847738466,0.970427084170965
31.95,0.975124794417794,0.970424580115558
31.96,0.97513489480682,0.97042219764835
31.97,0.975145149534716,0.970419937842167
31.98,0.975155559219515,0.970417801754152
31.99,0.975166124468113,0.970415790425715
32,0.975176845876236,0.970413904882516
32.01,0.975187724028498,0.970412146134493
32.02,0.975198759498382,0.970410515175824
32.03,0.97520995284824,0.970409012984937
32.04,0.97522130462928,0.970407640524472
32.05,0.975232815381618,0.970406398741322
32.06,0.975244485634262,0.970405288566618
32.07,0.975256315905116,0.970404310915716
32.08,0.975268306700966,0.970403466688206
32.09,0.975280458517548,0.970402756767945
32.1,0.975292771839496,0.97040218202302
32.11,0.975305247140395,0.970401743305802
32.12,0.975317884882767,0.970401441452922
32.13,0.975330685518082,0.970401277285305
32.14,0.975343649486784,0.970401251608182
32.15,0.975356777218288,0.970401365211098
32.16,0.97537006913101,0.970401618867951
32.17,0.975383525632364,0.970402013336995
32.18,0.975397147118754,0.970402549360846
32.19,0.975410933975657,0.970403227666571
32.2,0.975424886577568,0.970404048965645
32.21,0.97543900528803,0.970405013954002
32.22,0.975453290459694,0.970406123312094
32.23,0.975467742434272,0.970407377704873
32.24,0.975482361542583,0.970408777781862
32.25,0.975497148104593,0.970410324177179
32.26,0.97551210242939,0.970412017509575
32.27,0.975527224815225,0.970413858382464
32.28,0.975542515549505,0.970415847383955
32.29,0.975557974908866,0.970417985086933
32.3,0.975573603159153,0.970420272049078
32.31,0.975589400555422,0.970422708812882
32.32,0.975605367341996,0.97042529590574
32.33,0.975621503752486,0.970428033839986
32.34,0.975637810009793,0.970430923112938
32.35,0.97565428632612,0.970433964206923
32.36,0.975670932903026,0.970437157589387
32.37,0.975687749931438,0.970440503712896
32.38,0.975704737591659,0.970444003015227
32.39,0.975721896053409,0.970447655919405
32.4,0.975739225475813,0.970451462833747
32.41,0.975756726007508,0.970455424151986
32.42,0.975774397786561,0.97045954025324
32.43,0.975792240940585,0.970463811502167
32.44,0.975810255586711,0.970468238248959
32.45,0.975828441831612,0.970472820829421
32.46,0.975846799771586,0.970477559565091
32.47,0.975865329492521,0.970482454763231
32.48,0.975884031069934,0.970487506716935
32.49,0.975902904569037,0.970492715705221
32.5,0.975921950044734,0.970498081993062
32.51,0.975941167541645,0.970503605831475
32.52,0.975960557094134,0.97050928745759
32.53,0.975980118726381,0.970515127094753
32.54,0.975999852452357,0.970521124952559
32.55,0.976019758275878,0.97052728122696
32.56,0.97603983619065,0.970533596100341
32.57,0.976060086180263,0.970540069741581
32.58,0.97608050821827,0.970546702306166
32.59,0.97610110226817,0.970553493936237
32.6,0.976121868283471,0.970560444760698
32.61,0.976142806207745,0.970567554895311
32.62,0.976163915974578,0.970574824442722
32.63,0.976185197507686,0.970582253492618
32.64,0.976206650720929,0.97058984212178
32.65,0.976228275518327,0.97059759039418
32.66,0.97625007179409,0.970605498361053
32.67,0.976272039432673,0.970613566061018
32.68,0.97629417830883,0.970621793520158
32.69,0.976316488287579,0.970630180752084
32.7,0.97633896922431,0.970638727758069
32.71,0.976361620964808,0.970647434527141
32.72,0.976384443345239,0.970656301036134
32.73,0.97640743619225,0.970665327249829
32.74,0.976430599322972,0.970674513121037
32.75,0.976453932545069,0.970683858590691
32.76,0.976477435656768,0.970693363587952
32.77,0.976501108446905,0.9707030280303
32.78,0.976524950694964,0.970712851823654
32.79,0.976548962171115,0.970722834862447
32.8,0.976573142636225,0.970732977029727
32.81,0.976597491841966,0.970743278197309
32.82,0.97662200953078,0.970753738225807
32.83,0.976646695435964,0.970764356964789
32.84,0.976671549281708,0.970775134252875
32.85,0.976696570783102,0.970786069917801
32.86,0.976721759646227,0.970797163776596
32.87,0.976747115568151,0.970808415635616
32.88,0.976772638237008,0.970819825290715
32.89,0.976798327332025,0.970831392527314
32.9,0.976824182523532,0.970843117120497
32.91,0.976850203473077,0.97085499883518
32.92,0.976876389833396,0.970867037426159
32.93,0.976902741248506,0.970879232638255
32.94,0.976929257353726,0.970891584206413
32.95,0.976955937775712,0.97090409185581
32.96,0.976982782132527,0.97091675530198
32.97,0.977009790033679,0.97092957425092
32.98,0.977036961080154,0.97094254839921
32.99,0.977064294864446,0.970955677434091
33,0.977091790970653,0.970968961033642
33.01,0.977119448974483,0.970982398866847
33.02,0.977147268443283,0.970995990593702
33.03,0.977175248936157,0.971009735865393
33.04,0.977203390003934,0.971023634324346
33.05,0.977231691189237,0.971037685604345
33.06,0.977260152026581,0.971051889330725
33.07,0.977288772042339,0.971066245120393
33.08,0.977317550754848,0.971080752582002
33.09,0.977346487674438,0.971095411316059
33.1,0.97737558230346,0.97111022091502
33.11,0.977404834136367,0.971125180963437
33.12,0.977434242659756,0.971140291038077
33.13,0.9774638073524,0.97115555070802
33.14,0.977493527685297,0.971170959534781
33.15,0.977523403121737,0.971186517072438
33.16,0.977553433117336,0.971202222867761
33.17,0.977583617120095,0.971218076460306
33.18,0.977613954570438,0.971234077382564
33.19,0.977644444901292,0.971250225160061
33.2,0.977675087538073,0.971266519311472
33.21,0.977705881898811,0.971282959348773
33.22,0.977736827394159,0.971299544777331
33.23,0.97776792342743,0.971316275096025
33.24,0.977799169394704,0.971333149797406
33.25,0.977830564684816,0.971350168367767
33.26,0.977862108679447,0.97136733028729
33.27,0.977893800753164,0.971384635030171
33.28,0.977925640273453,0.971402082064716
33.29,0.977957626600819,0.971419670853507
33.3,0.977989759088791,0.971437400853481
33.31,0.978022037083984,0.971455271516052
33.32,0.978054459926173,0.971473282287276
33.33,0.978087026948312,0.971491432607913
33.34,0.978119737476622,0.97150972191359
33.35,0.978152590830636,0.971528149634929
33.36,0.978185586323204,0.971546715197604
33.37,0.97821872326063,0.971565418022545
33.38,0.978252000942648,0.971584257525994
33.39,0.97828541866253,0.971603233119672
33.4,0.978318975707094,0.971622344210851
33.41,0.978352671356811,0.971641590202535
33.42,0.978386504885811,0.97166097049352
33.43,0.978420475561947,0.971680484478539
33.44,0.978454582646878,0.971700131548401
33.45,0.978488825396094,0.971719911090077
33.46,0.978523203058981,0.971739822486847
33.47,0.978557714878877,0.971759865118396
33.48,0.978592360093109,0.971780038360936
33.49,0.978627137933083,0.971800341587341
33.5,0.978662047624317,0.971820774167256
33.51,0.978697088386482,0.9718413354672
33.52,0.978732259433488,0.971862024850705
33.53,0.978767559973519,0.971882841678422
33.54,0.978802989209103,0.97190378530824
33.55,0.97883854633715,0.971924855095397
33.56,0.97887423054902,0.971946050392601
33.57,0.978910041030576,0.971967370550138
33.58,0.978945976962239,0.971988814916001
33.59,0.978982037519063,0.972010382836006
33.6,0.979018221870737,0.972032073653856
33.61,0.979054529181713,0.972053886711334
33.62,0.979090958611201,0.972075821348349
33.63,0.979127509313274,0.972097876903082
33.64,0.979164180436897,0.972120052712099
33.65,0.979200971125977,0.972142348110435
33.66,0.979237880519429,0.972164762431711
33.67,0.979274907751263,0.972187295008292
33.68,0.979312051950594,0.972209945171325
33.69,0.979349312241719,0.972232712250889
33.7,0.979386687744171,0.97225559557609
33.71,0.979424177572791,0.972278594475177
33.72,0.979461780837774,0.972301708275646
33.73,0.979499496644709,0.972324936304324
33.74,0.979537324094677,0.97234827788752
33.75,0.979575262284259,0.972371732351064
33.76,0.979613310305633,0.972395299020477
33.77,0.979651467246614,0.972418977221017
33.78,0.979689732190734,0.97244276627784
33.79,0.979728104217247,0.972466665516033
33.8,0.979766582401251,0.972490674260767
33.81,0.979805165813701,0.97251479183737
33.82,0.979843853521477,0.972539017571424
33.83,0.979882644587462,0.972563350788886
33.84,0.97992153807057,0.972587790816152
33.85,0.979960533025839,0.972612336980186
33.86,0.979999628504441,0.972636988608571
33.87,0.980038823553777,0.972661745029638
33.88,0.980078117217543,0.972686605572558
33.89,0.980117508535747,0.972711569567405
33.9,0.980156996544796,0.972736636345268
33.91,0.980196580277566,0.972761805238344
33.92,0.980236258763425,0.972787075580011
33.93,0.980276031028308,0.972812446704912
33.94,0.980315896094798,0.972837917949075
33.95,0.980355852982127,0.972863488649935
33.96,0.980395900706303,0.972889158146488
33.97,0.980436038280122,0.972914925779324
33.98,0.980476264713237,0.972940790890729
33.99,0.980516579012213,0.972966752824746
34,0.980556980180616,0.972992810927304
34.01,0.980597467219013,0.973018964546216
34.02,0.980638039125073,0.973045213031313
34.03,0.980678694893645,0.97307155573453
34.04,0.980719433516736,0.973097992009911
34.05,0.980760253983662,0.973124521213763
34.06,0.980801155281048,0.973151142704664
34.07,0.980842136392877,0.973177855843547
34.08,0.98088319630063,0.97320465999383
34.09,0.980924333983239,0.973231554521377
34.1,0.980965548417206,0.973258538794641
34.11,0.981006838576641,0.973285612184693
34.12,0.981048203433369,0.97331277406534
34.13,0.981089641956874,0.973340023813071
34.14,0.981131153114496,0.973367360807261
34.15,0.981172735871381,0.973394784430119
34.16,0.981214389190596,0.973422294066793
34.17,0.981256112033181,0.973449889105435
34.18,0.981297903358163,0.973477568937207
34.19,0.981339762122664,0.973505332956376
34.2,0.981381687281966,0.973533180560385
34.21,0.9814236777895,0.973561111149823
34.22,0.981465732596994,0.973589124128573
34.23,0.981507850654427,0.973617218903752
34.24,0.981550030910201,0.973645394885864
34.25,0.981592272311103,0.973673651488758
34.26,0.98163457380242,0.973701988129733
34.27,0.981676934327964,0.973730404229523
34.28,0.981719352830152,0.973758899212391
34.29,0.981761828250035,0.973787472506103
34.3,0.981804359527388,0.973816123542034
34.31,0.981846945600741,0.973844851755147
34.32,0.98188958540746,0.973873656584063
34.33,0.981932277883773,0.973902537471062
34.34,0.98197502196486,0.973931493862143
34.35,0.982017816584869,0.973960525207011
34.36,0.982060660677013,0.973989630959142
34.37,0.982103553173605,0.974018810575798
34.38,0.982146493006119,0.97404806351804
34.39,0.982189479105251,0.974077389250757
34.4,0.982232510400964,0.974106787242688
34.41,0.982275585822537,0.974136256966417
34.42,0.982318704298652,0.974165797898423
34.43,0.982361864757423,0.97419540951909
34.44,0.982405066126466,0.974225091312699
34.45,0.982448307332932,0.974254842767442
34.46,0.982491587303597,0.974284663375466
34.47,0.982534904964882,0.97431455263283
34.48,0.982578259242932,0.974344510039555
34.49,0.982621649063654,0.974374535099602
34.5,0.982665073352808,0.974404627320907
34.51,0.982708531036003,0.974434786215335
34.52,0.982752021038797,0.974465011298723
34.53,0.982795542286742,0.97449530209086
34.54,0.982839093705419,0.974525658115476
34.55,0.982882674220517,0.974556078900264
34.56,0.982926282757879,0.974586563976846
34.57,0.982969918243547,0.974617112880778
34.58,0.983013579603829,0.974647725151547
34.59,0.983057265765332,0.974678400332538
34.6,0.983100975655051,0.97470913797105
34.61,0.983144708200379,0.974739937618254
34.62,0.983188462329198,0.974770798829206
34.63,0.9832322369699,0.974801721162792
34.64,0.983276031051458,0.974832704181744
34.65,0.983319843503486,0.974863747452607
34.66,0.983363673256275,0.974894850545715
34.67,0.983407519240844,0.974926013035164
34.68,0.98345138038901,0.9749572344988
34.69,0.983495255633405,0.97498851451816
34.7,0.983539143907595,0.975019852678516
34.71,0.98358304414605,0.975051248568753
34.72,0.983626955284234,0.975082701781387
34.73,0.983670876258686,0.975114211912561
34.74,0.983714806007003,0.975145778561937
34.75,0.983758743467944,0.975177401332721
34.76,0.983802687581486,0.975209079831627
34.77,0.983846637288805,0.975240813668774
34.78,0.983890591532423,0.975272602457738
